!Nueva Lista de parametros Z 
# Hz Z RI R 50 
400000000	0.6517821602197863	-78.77814303577294	0.3481880632895844	-92.73969051382197	0.3040428095726744	-92.81649123190172	0.6604965258006179	-78.66336087235199
409500000	0.6644447526834508	-76.5023081859579	0.3245134393501272	-90.7355528689175	0.3118130718073322	-90.83933597135983	0.6520803033546667	-76.30373402949263
419000000	0.6273489254940572	-74.31923464413836	0.2686106530653858	-88.99226941876366	0.30876241479577865	-89.01180567240044	0.674522156742162	-74.22488665539528
428500000	0.6558317249587703	-72.21055441320982	0.22307319721624355	-87.25296258079086	0.2748582382913484	-87.31369100061356	0.60107650728215	-72.17736279882293
438000000	0.6623775810054003	-70.19430706108031	0.20749950269758136	-85.61847822239551	0.32493798824600373	-85.65506620088712	0.7033420976303506	-70.19184112327653
447500000	0.648764742326595	-68.28634181683131	0.2630607441343396	-84.01438178021411	0.2432540450424149	-84.06896268300946	0.6588830154731492	-68.22499670265586
457000000	0.6592886610284691	-66.45079336804217	0.2637235823668391	-82.51016501131971	0.2702325375589137	-82.52066351553144	0.7012589077608777	-66.30151866151188
466500000	0.7084343732059948	-64.60941644863435	0.2647185694922509	-81.03493117483697	0.28909412752701646	-81.08296194214964	0.6811661818435576	-64.56427901715108
476000000	0.6401755490179566	-62.87489323201144	0.22914576183821103	-79.69482265183133	0.24048791186397742	-79.7389767810711	0.6531666113951361	-62.856208289593326
485500000	0.6824757734859862	-61.1972319761252	0.28830714156510656	-78.3829640004457	0.28574574004080877	-78.40408927639442	0.7447138997219183	-61.175578931088545
495000000	0.7225438432889681	-59.614607134578044	0.29221856792765205	-77.0982102273477	0.2939039394880644	-77.16030467347467	0.734896539010038	-59.49692053890356
504500000	0.7173069745802596	-58.10050765736465	0.30883004391466234	-75.9796240003164	0.2897852900601473	-75.9855078474559	0.8057877556783649	-57.989704355029595
514000000	0.627674597655387	-56.58085490158782	0.1774219439320786	-74.83083101844458	0.18033518448080857	-74.86830910352384	0.6960315420369585	-56.50551935643282
523500000	0.6201102461137252	-55.082260129468324	0.15997391000596806	-73.6430648424616	0.19331364847184032	-73.68412946173977	0.7025804096880205	-54.945331234992864
533000000	0.6399919155574159	-53.58690383820463	0.12843017091550485	-72.56654596873605	0.18930629815103842	-72.58241482344862	0.7083393114128175	-53.55670462984789
542500000	0.6558969237352765	-52.213334703706806	0.12714041086933633	-71.48768588135118	0.09232870942386831	-71.57302691290106	0.6306275971344438	-52.093503785369535
552000000	0.7211384933882469	-50.92513888991798	0.19725683739418706	-70.56682016764374	0.14873888695034462	-70.61568950303251	0.7136045768522176	-50.740758040626105
561500000	0.686454535569915	-49.5310206231345	0.08315749695179529	-69.60338296549273	0.14124372699664126	-69.58773716377796	0.6847195454384948	-49.474356816503935
571000000	0.7480068027634333	-48.204431890881374	0.18232330473963326	-68.68980641608887	0.18820403833374597	-68.71049817421076	0.7850129607088013	-48.190278446459125
580500000	0.7118922733266037	-47.03914315060695	0.12039331712008183	-67.83834340001307	0.0969168137721158	-67.86258510906846	0.6952116004905661	-46.94180931142649
590000000	0.6807523916986274	-45.800498506899594	0.06658985196278934	-67.01605430857946	0.07902417772304748	-67.07894595375319	0.7256294546289191	-45.756699089187435
599500000	0.7054540710252486	-44.64022494468137	0.06540577974933674	-66.22704497162148	0.08348169693609706	-66.29952986322373	0.7175934395954628	-44.564111397349926
609000000	0.7023085198329284	-43.43968113226821	0.13840951620689634	-65.3991974188991	0.08834562114566274	-65.42201678702567	0.7564055966532666	-43.33173207029623
618500000	0.7170320204632881	-42.29447829155852	0.02198645009732783	-64.63607323694534	0.026873416616718285	-64.71613423310076	0.636835868519049	-42.24934944030108
628000000	0.7224688144915413	-41.18766068204778	0.0553189765299582	-63.90629590020263	0.08333097025051013	-63.953258632781754	0.6861029815797516	-41.15975682716441
637500000	0.7168912797047846	-40.091191679145986	0.031840384785064436	-63.179366560718286	0.02808733420089225	-63.21563713881617	0.670279334914131	-39.99435907219524
647000000	0.7477419815408171	-39.06689975921691	0.05620059307104952	-62.5521697185797	0.06909307541844766	-62.5830836501372	0.7782711385344321	-38.97778928529779
656500000	0.7232315007921819	-38.020370600445915	0.0495227321207171	-61.886770854256845	0.07418506253111158	-61.93039726007917	0.786900657779172	-37.9244338191007
666000000	0.7451951309121553	-37.03349673904622	0.023406925069543793	-61.2751012327742	0.039235144197344286	-61.3353170966842	0.7714617093326939	-36.92975781442192
675500000	0.7825915346061608	-36.062229291837994	0.01385795507071103	-60.70122726411097	0.05568795949793293	-60.722916306480606	0.8028006484884593	-35.89075708428822
685000000	0.7697893863173068	-35.04188034602211	-0.005220141026148352	-60.10715233409967	0.016936522342186077	-60.147653249164385	0.7727157281613578	-34.958681222848945
694500000	0.7364005155719503	-34.11568784278687	-0.020691160248320396	-59.604485459587984	-0.019082614138272246	-59.593629991110994	0.765023506198049	-33.98209342314266
704000000	0.7926214517362138	-33.156604747705444	-0.015452253906982192	-59.02056442020739	-0.02498114664405037	-59.07532443176756	0.7884994567215919	-33.05651321585426
713500000	0.7751156296375006	-32.25767669660617	0.0006935500210251745	-58.540910286885484	0.013899532839763501	-58.55518387151361	0.827918666445814	-32.15311729489973
723000000	0.747823977828178	-31.332799602100668	-0.0675439267222599	-58.00079068976734	-0.06955101083516296	-58.044036875280455	0.7649792403337328	-31.243623326294077
732500000	0.782959170442279	-30.421769504963105	-0.09283935955141408	-57.53652995434078	-0.09779107312446937	-57.56227274113235	0.7537659184103065	-30.366872003157138
742000000	0.7890883863902028	-29.57152166260197	-0.06584585734760212	-57.06515012418599	-0.09109549478053207	-57.12355602648193	0.7935326584694362	-29.440355839910072
751500000	0.8137641454144066	-28.71182088384	-0.1257948764865258	-56.634277603291025	-0.08650238433772242	-56.64027954468629	0.8055061367703225	-28.601927965556953
761000000	0.7966026583596525	-27.830772043229818	-0.05303149462293178	-56.16846571732077	-0.10118095622837538	-56.21119751638127	0.8565254461499403	-27.711111000837914
770500000	0.8261525773211263	-26.969111276853024	-0.16549467165644768	-55.725327069555775	-0.1849100819023079	-55.74790695170954	0.7508488090056983	-26.92684708922269
780000000	0.8627864276290963	-26.163160368053763	-0.13729876412523434	-55.317587743529934	-0.12192591936315977	-55.38269412309282	0.8043992152288518	-26.09169929648054
789500000	0.8320479178266695	-25.351398885612497	-0.19309452584758385	-54.95292291326351	-0.16063730560470568	-55.00275504172428	0.8136712279221816	-25.291543859986092
799000000	0.8528063130236109	-24.622846131071896	-0.18673898489238827	-54.62633722797695	-0.15611277548051594	-54.63544522120546	0.869087316218528	-24.435754252075686
808500000	0.8645198040773123	-23.78945440254561	-0.1825206393905129	-54.24155056068735	-0.17998784559133824	-54.30287294860058	0.8661737106528056	-23.658516328977484
818000000	0.8879946807224602	-23.020280754831422	-0.2116802146937666	-53.91211740963907	-0.19644759923234975	-53.942759908840266	0.8696634283419004	-22.88152445682488
827500000	0.8739288541943407	-22.271855595581634	-0.2169920425825167	-53.57578095096864	-0.19266205662602376	-53.62645328034503	0.9140276547254729	-22.108322840735777
837000000	0.9061794350139031	-21.500795257355293	-0.24238610923536283	-53.26868084578881	-0.2303452213429675	-53.30591739822887	0.8855644612100869	-21.32529615569571
846500000	0.8869041637898749	-20.713885186135947	-0.2234724873812812	-52.978291003913625	-0.22367234728801988	-53.016267622797876	0.9457747729483661	-20.63154624247275
856000000	0.9186890590001418	-19.999061359532075	-0.25692218265123234	-52.66815825715479	-0.2507163671412186	-52.679379204975234	0.9121197073050575	-19.835163713054133
865500000	0.9377787588418274	-19.231530223851227	-0.23976187030913404	-52.4242357443002	-0.24791164458193468	-52.43731523974339	0.9483021940466921	-19.14085448875207
875000000	0.93784713916842	-18.480592637247053	-0.28692408000216235	-52.12153345925362	-0.28286876026809415	-52.16117400357185	0.9451717925302114	-18.383848349968424
884500000	0.9433617483240071	-17.782965148136775	-0.29185514137348667	-51.89282464774828	-0.2984578095321112	-51.90284122122999	0.9671772613670322	-17.703756834946986
894000000	0.9618356004342697	-17.119006015447848	-0.32965277730975545	-51.61800771371424	-0.29608324675388387	-51.63237135804815	0.9375340955997963	-16.94984978491542
903500000	0.993793219066345	-16.41994150818273	-0.3144818572723854	-51.365973840758265	-0.3428027632315373	-51.396440630732684	0.9863903332458998	-16.207727046792886
913000000	0.9929549431100372	-15.706665719661688	-0.33757908574980583	-51.14825817711573	-0.32105854833715913	-51.19400511460816	0.9731642491557522	-15.537395619248027
922500000	1.0098516521629737	-14.997679793421533	-0.36023845489557565	-50.93895313015484	-0.3583959119770007	-50.961094972698724	0.9993372844108009	-14.831341750152788
932000000	0.9957393235475281	-14.326550912368981	-0.3663060146836547	-50.73443739578079	-0.3867447085207579	-50.75224929838228	1.0391816396880695	-14.140196955176044
941500000	1.0515116726819476	-13.61810651052745	-0.37204477900965893	-50.52282902138626	-0.38516547912134147	-50.576681379805045	1.0052826134005122	-13.45440293311864
951000000	1.063251739914395	-12.907776468355003	-0.40183869299769903	-50.327997391395414	-0.3852680994275463	-50.38008762678014	1.0456663644936	-12.818954789594992
960500000	1.079158303428604	-12.265652770242708	-0.4254251314399894	-50.14184059384236	-0.42143739954784104	-50.16394482115823	1.032557418745582	-12.122855736081855
970000000	1.0733553209837106	-11.571854877708612	-0.4351345399925098	-49.99945231995398	-0.39540199165062767	-50.051727146363675	1.1065599805666388	-11.466380880961706
979500000	1.0938886022576166	-10.915645108589196	-0.45703925709062143	-49.848766401790265	-0.4689329988171179	-49.88259470557358	1.1051188673508936	-10.786974701058398
989000000	1.1235151824218026	-10.248232536270915	-0.47825452089093173	-49.676311613349036	-0.4694223166994704	-49.742021762741544	1.1048289732417915	-10.180610523090559
998500000	1.114290407814898	-9.59302383776205	-0.49369865315555195	-49.562441176952134	-0.4891347297104911	-49.57231734315477	1.1070623979778922	-9.525862800977052
1008000000	1.1635346524101533	-8.944658442574797	-0.5250590295320393	-49.38983688000765	-0.5196991755976204	-49.44510861293676	1.1068603772611476	-8.854784557718194
1017500000	1.17340783007684	-8.307150000512797	-0.49211788357502745	-49.31263931307726	-0.4888636074810188	-49.30694537431415	1.1858437671933322	-8.209580640988783
1027000000	1.16469618001413	-7.696993399442652	-0.5581155631752809	-49.18750743823888	-0.5244428480895109	-49.21713397757315	1.184402948023378	-7.539014982875879
1036500000	1.1994655766481435	-7.050142669107921	-0.5861559557420323	-49.057725179268175	-0.5598532012422878	-49.08629040644124	1.2097976946516427	-6.90149703680584
1046000000	1.2242303983048646	-6.402670957122266	-0.6080160208745937	-49.0218234153514	-0.5850384901185672	-49.02271477827241	1.2436749882173193	-6.279734554619478
1055500000	1.256982376217609	-5.770002945289731	-0.5835942141129473	-48.9392157436054	-0.6003712751141276	-48.922274454034174	1.2474040232361647	-5.621146881392576
1065000000	1.280058701272991	-5.1586062473249275	-0.618796257636254	-48.81564066203203	-0.6195316783826569	-48.82881834681789	1.262654592647914	-4.9827830344851956
1074500000	1.2764372550666208	-4.5157129436792705	-0.6295395141234651	-48.71739784401795	-0.6252046635723831	-48.76182637882455	1.289065370171663	-4.338370109092412
1084000000	1.29930890247011	-3.8964424424195276	-0.6507846802970532	-48.687066791303344	-0.6783560620684388	-48.70916002802153	1.3067729164477146	-3.704260964287635
1093500000	1.3363936100696132	-3.2560944608641478	-0.7040585270306208	-48.62410867340899	-0.6944381983976571	-48.643360995518755	1.320213331398721	-3.1165578882678613
1103000000	1.3371883733541141	-2.624023979431292	-0.7213602054143766	-48.581820346713585	-0.7190906353472131	-48.59390790932187	1.3694923178245315	-2.4664333541942436
1112500000	1.4050774766030416	-2.0248586132544326	-0.7492893774058391	-48.53188919763002	-0.7634258869761095	-48.55972393737595	1.3615344905138123	-1.8413358348564808
1122000000	1.3971733683611383	-1.4012224664589776	-0.7402218362961558	-48.50787474619021	-0.7391171304349067	-48.5153877655473	1.4005833734815314	-1.1933111445802493
1131500000	1.4219793740517992	-0.7670119822904989	-0.7698691421062742	-48.49399028455699	-0.7593715808873484	-48.50238144358698	1.4227542626397984	-0.5770681857849506
1141000000	1.443421257183025	-0.1321574027688253	-0.8033702739278525	-48.46753361547791	-0.801704502087178	-48.499105932822296	1.4465820459684597	0.04890800881518462
1150500000	1.4441534895391568	0.5128457891482906	-0.8168232570732127	-48.46878680210754	-0.7989234694257608	-48.49527202257408	1.4968494910095362	0.6507461297115222
1160000000	1.5063571312508706	1.1121067786972292	-0.8687186653256568	-48.494318079210615	-0.8464596910773264	-48.50821623692129	1.5276105022532813	1.2951403232791128
1169500000	1.5313330874666753	1.72317894091456	-0.8598039744320867	-48.45588057308036	-0.8598976654947046	-48.487867754921815	1.5289393412776875	1.918892136199694
1179000000	1.5739085854849286	2.311993188462373	-0.9244758755662656	-48.481452028060154	-0.8947290434598529	-48.517294760843924	1.5471141498242644	2.5376232167833446
1188500000	1.5850864058413419	2.9599224874381247	-0.9298753926675208	-48.51979772970539	-0.9303540070584937	-48.538344991195515	1.5727084153604198	3.194285956379755
1198000000	1.6164943811835437	3.6012703974291753	-0.9907270436442143	-48.55631551693203	-0.9739574448709398	-48.59572462122841	1.6322719251479796	3.7961905074981126
1207500000	1.6454725590430783	4.216284015413661	-1.0017579149756892	-48.56798038939982	-0.9915195491059691	-48.61398862640729	1.6352371423475793	4.419151442886816
1217000000	1.6545987745948487	4.866804847962162	-1.011594802485243	-48.631970952637765	-1.0252769938697055	-48.66418898309603	1.6713199232147482	5.024157639505133
1226500000	1.7196442564384398	5.469324520592432	-1.0610676792212979	-48.666085449644655	-1.0428620373749764	-48.71916916174765	1.6734926884491705	5.670826193659686
1236000000	1.740238032626588	6.115455831679946	-1.1066565138058226	-48.75327030371503	-1.0916531022811342	-48.77488658162421	1.733022153214958	6.278936019086758
1245500000	1.7570005299329101	6.7387689504782475	-1.1219144353957315	-48.823662511477195	-1.1317243882876418	-48.84782154176837	1.7544456890326614	6.92583744045328
1255000000	1.8127127184535903	7.379723397072108	-1.1507846460117415	-48.89522301538843	-1.1600598619963989	-48.920375855239065	1.792041323190804	7.519153259134265
1264500000	1.8437258079235295	7.998412319286541	-1.1744248188577575	-48.976125378932736	-1.155383919936801	-48.98920310756227	1.8169895510483631	8.173300637357727
1274000000	1.877283946427847	8.637944509410893	-1.2205356873040294	-49.08801081179658	-1.2112437231039495	-49.09244487277669	1.84860653436374	8.81397618892097
1283500000	1.917129693904923	9.26204512688933	-1.2543371791828917	-49.17368360609117	-1.2642767358270217	-49.22321096043781	1.8924892978110706	9.437563493198954
1293000000	1.9500584476685154	9.894538454665502	-1.3034382618347407	-49.29575345778349	-1.2984196501384497	-49.31992418133996	1.9397541231528173	10.094240194252901
1302500000	1.976452958658976	10.546792122108176	-1.3121585315496542	-49.40452460886823	-1.323795414176999	-49.42590338685404	1.9504134478293687	10.709339033072453
1312000000	2.0126036784820864	11.178629708045142	-1.3466548973054533	-49.540609652848985	-1.3344745176687425	-49.5430528916792	1.984520604206736	11.390772621462554
1321500000	2.0701674220979545	11.809841393933075	-1.4040419189749351	-49.66878022492241	-1.395915645390359	-49.6783085263854	2.0376597785816233	12.040405096593028
1331000000	2.0726730024193167	12.427767887952328	-1.420463060757387	-49.808877843799074	-1.408649393447933	-49.86264952175877	2.069122981644928	12.70181347055675
1340500000	2.1208731956097706	13.104926806512351	-1.4761094672380437	-49.96046629976589	-1.4848863375205512	-50.00035992028502	2.1338648076028286	13.352785146979633
1350000000	2.1525495571588293	13.78636044138482	-1.5058158673307407	-50.147095696881344	-1.5137222657161455	-50.16000498504077	2.1623865929273127	14.010032130416397
1359500000	2.21449978209841	14.462728492841933	-1.5884311874903472	-50.30041386515039	-1.569482489882454	-50.34088281349321	2.2276588859233595	14.654364892353211
1369000000	2.2727646959612753	15.089678262492114	-1.6125396930363458	-50.46837152514566	-1.6032131452623026	-50.51114313752174	2.2500291336676708	15.325610815073123
1378500000	2.330079755607962	15.790380071637951	-1.6768515987176236	-50.68706656206149	-1.681645903503552	-50.73189077678412	2.312025135603316	16.021565464153703
1388000000	2.3701734446579077	16.468889148630737	-1.723332843325226	-50.89053809138539	-1.7111623629156474	-50.90902332762941	2.339238420318637	16.680407802429063
1397500000	2.4315418244555738	17.154847520899388	-1.7916515476732922	-51.07928863546972	-1.7570754741350578	-51.133087649143306	2.4073408608258946	17.359259498806914
1407000000	2.455813320669468	17.838768401651564	-1.8148829980559742	-51.31979464784585	-1.8025734119816448	-51.34465245800824	2.45924013269512	18.068790820629214
1416500000	2.4962703914341184	18.500365057329315	-1.8519559392755727	-51.54629578388162	-1.819771829564628	-51.566711876580406	2.4913935900213957	18.787034153109406
1426000000	2.5578016746772194	19.18804623808204	-1.9260849961412672	-51.75524496629197	-1.879282048237669	-51.795903161061425	2.562576485289654	19.459541916188964
1435500000	2.629793504191133	19.89865134751299	-1.9554217131234939	-52.02694778619694	-1.934662393921137	-52.062151307283735	2.5963061862917067	20.175093464235804
1445000000	2.6663219939031317	20.614591551130314	-2.0048729319358585	-52.27240905709773	-2.004296932416461	-52.31039589524009	2.664842101255836	20.876023312091395
1454500000	2.71508681884663	21.3166766328981	-2.072466701443529	-52.54630067371929	-2.05597621888654	-52.55117061903645	2.6958104255659743	21.591255170045056
1464000000	2.786368197906923	22.056123812273338	-2.1345956852113472	-52.842785830672966	-2.115267640100732	-52.837593327228696	2.770001200709371	22.328708447859984
1473500000	2.8419339283645066	22.80674707652771	-2.1967150004375617	-53.11663366966063	-2.172874807962724	-53.168948083479656	2.8387367107057018	23.068245290421903
1483000000	2.908147898438842	23.546273069394097	-2.2530249874397255	-53.442484837440865	-2.243959364946598	-53.474619746366905	2.8971233570918247	23.82362998553669
1492500000	2.9671682894284213	24.27929981484158	-2.2902190315165307	-53.72790056720427	-2.309764601877052	-53.75519690276633	2.9509947412123	24.576703007398546
1502000000	3.0575515903105224	25.03912536311825	-2.425269206879125	-54.06959660459031	-2.4023895138451965	-54.1122420549798	3.0580498283923854	25.32471370293437
1511500000	3.0947771721701134	25.82892492156458	-2.4461011946753204	-54.42866032175869	-2.42977818141268	-54.467433107465645	3.1035023383176674	26.112860562275472
1521000000	3.19265124983715	26.603943195468833	-2.528626542002248	-54.79284309963594	-2.484211868287924	-54.83802654017125	3.1662028023981588	26.89732009070887
1530500000	3.2389499485163094	27.395802761827714	-2.570785105195153	-55.14156848413011	-2.5694050628457408	-55.191395109349806	3.2522897170233986	27.709764080699433
1540000000	3.3401584157399857	28.169921660957794	-2.6690751564018815	-55.525664204933044	-2.662555105170458	-55.57291841965855	3.3424020103770573	28.47477032099034
