!Nueva Lista de parametros Z 
# Hz Z RI R 50 
400000000	0.9492963829032466	-230.90721325179885	0.22405282174254204	1.3112254172422744	0.7376789104379469	3.089765951535734	-185.16330032111205	-4054.6058281642004
409500000	0.5849262953045633	-224.977001309331	-2.361325926555757	1.9031640252557893	0.8526290714899003	0.05035096973085821	-273.5692700126188	-3989.254933855741
419000000	0.43206505769012954	-220.55804428108476	0.8173291163376558	0.26145594169135555	0.4841853807220526	0.14965170808672296	-245.23411537301683	-3850.973723093937
428500000	0.005206465527434579	-215.56550370277813	-0.8182064361739492	-0.6876131111819089	-0.26429241457948227	-1.0361645173658944	-170.62576397739227	-3829.707249060565
438000000	0.5197910192690478	-210.90298663226986	0.13227040946342336	-0.5055345888389141	-0.17342591222522863	-0.6853532250785774	-216.4664314130987	-3707.8351963978967
447500000	0.77065114023245	-206.2193899786873	-0.9910475644489679	0.5033615617983006	-0.5612039895888905	-0.2211553183372661	-200.19431938881002	-3551.2841895567412
457000000	0.632570230380966	-201.25653452560582	-0.18275064897931456	0.8539338655584169	0.47669996947017784	-0.03732035752258931	-199.3247895952454	-3507.1493774087267
466500000	0.6324040373326154	-197.35527801410294	0.36863252491551035	0.027234745942187537	0.6153075455957258	0.246413085436377	-170.83355577092078	-3426.4774999445967
476000000	0.6646724753705205	-193.2505530839758	1.1056393602905377	0.9413392615753476	0.8073187182724048	-2.1434976122405103	-176.42974216294982	-3289.737459397519
485500000	0.7410233874568064	-189.49408245559582	-0.07603832671566639	0.264031378339154	0.16089551832306068	-1.1124219001659625	-161.1198407635508	-3249.2112491156004
495000000	0.815026468499954	-185.4493573098219	-0.6399399523459627	0.31198601184968205	0.27357975828684405	-0.28742941111622955	-146.78478007321726	-3205.9281343149123
504500000	1.118887602334599	-181.97435854719294	-0.11475503193319789	0.5376991867485785	-0.6516982858413707	-1.0237283272525153	-185.02877612685157	-3198.557462972256
514000000	0.5183855114114349	-178.47234741682152	0.7049660944067886	-1.166729014053292	-0.5142396910025122	-0.7638224855917045	-176.7868872113574	-3195.726189171605
523500000	0.5881493826627441	-175.0472063329134	1.087105610621667	-0.1915537258720786	-0.9139451574888365	-0.3733835507402988	-207.2851857074376	-3097.321082578673
533000000	0.6520197095295132	-171.85291012159053	-0.5699970653375847	0.2710500615683571	0.3115935383976583	1.1073279768715678	-169.84816223045814	-3018.1888689466546
542500000	0.20196425037506383	-168.62206608208902	0.048489434441492424	-0.2898139574358948	-0.031100263966131702	-0.34527589758030386	-209.88024975845553	-3023.641171648368
552000000	0.5882575180260945	-165.43358816130254	0.29772395232637816	-0.2707029562268162	0.5284250182651202	-0.1957787222893789	-138.64805711320088	-2950.9376087213186
561500000	0.3508278963978235	-162.4708469261723	-0.7363966852851737	0.137230942240335	0.33337731134771603	0.29729550440837677	-191.64120990141961	-2841.8430965541365
571000000	0.8387136085580179	-159.87248972572468	-0.2102230569654805	0.1465785266038123	0.8674116965888221	-0.34382988872683384	-117.527049363864	-2756.5974004531568
580500000	0.6011929943923454	-157.16066145043897	-0.5736631171400055	0.8893426430760665	-0.2396401295530657	-0.4367458289186063	-176.2852937712055	-2720.3696760667876
590000000	0.4150629282878509	-154.59309005786994	0.37967878459939786	0.2037240700259779	1.0056107602889053	-0.1331147552384296	-144.01747858405108	-2762.221046249645
599500000	0.5686106905748551	-151.77138725086274	0.05992539647996013	0.3166182373164444	-0.4138588893834951	0.003212989413663568	-132.11085038002642	-2685.490630921926
609000000	0.7351959676570968	-149.11716063854593	-0.33791851486541297	-0.004169544807411876	0.21609727728756092	-0.6105279187207173	-149.5076607878816	-2631.7802089984807
618500000	0.3152384732116179	-146.67089939883286	0.06155866178453842	0.06991486340336776	0.06794719210599395	-0.47436403006549166	-124.87508224839092	-2589.256870922357
628000000	0.4973997806485609	-144.27376121546598	-0.10812657373032773	-0.19401262511916903	0.06390699459355631	-1.1432507434539767	-153.70801093357872	-2530.215551523705
637500000	0.4724598509979924	-141.9362531925444	-0.4034555968699335	0.03606305770300008	-0.46420965900452577	0.23414149157775305	-163.89106757662933	-2492.9346798451597
647000000	0.5692550160769589	-139.85083051561713	0.1209118605766436	0.019952684465717317	-0.015739596629881673	-0.2693443268921578	-165.68176364979692	-2496.586696480806
656500000	0.6029783498236492	-137.48870810484388	0.11420035827666829	-0.07171705851690378	0.5937519426196415	0.08248207144361333	-167.39367745210504	-2466.957046696417
666000000	0.6541442100558115	-135.51882769519688	0.041192285077757934	-0.4273710018493704	0.2344988160420213	-0.02550669344701851	-151.68149764502436	-2390.0691260887043
675500000	0.756818632501606	-133.44207578794973	-0.3893664067577318	0.42863379251058764	0.11460482185553905	-0.5726842948904816	-120.34868272671363	-2452.8328214744524
685000000	0.6206539416101854	-131.4741484732941	0.07240068476195284	-1.0237762826733299	0.14717030240234838	-0.306364100538262	-148.39117921813062	-2370.0646772079594
694500000	0.48034288141949755	-129.5661286289436	0.3488161042532634	0.27627204238456643	-0.009151858395258491	-0.6420732017629208	-142.77412330460928	-2332.139288813445
704000000	0.5307224412349316	-127.61054881142904	0.14270620202475506	0.3291802146725513	0.41714153795345643	-0.07254914617429452	-137.73669332369553	-2317.1686357721323
713500000	0.7036250743853071	-125.83391560393487	0.12997853975638482	-0.1542071179605238	-0.49114545427745676	-0.10641854238885051	-144.53169596762473	-2262.1844243995124
723000000	0.48840479072406245	-123.92396418935314	0.22123367975518768	-0.1812357135924275	-0.43237705815543215	-0.17949893972694128	-140.7639421765639	-2245.50858238244
732500000	0.4900666274611195	-122.21555876043158	-0.21834833351361427	0.0569071673998814	0.7625350934279366	0.7663587778301598	-160.2864244760108	-2238.406744686415
742000000	0.5264301747692289	-120.48968306807112	0.2141423322031632	-0.1352367662390832	0.0023921456382831052	0.22689430014974837	-158.87821838846017	-2219.7442137186536
751500000	0.41402691335040337	-118.74625576627682	-0.07541191150863222	-0.15948232620544125	-0.512137465565951	-0.673715107709039	-168.20544649449133	-2206.8758952870526
761000000	0.6365513577602699	-117.05003640962177	0.010671703990087312	0.295544398831747	-0.21855353523033041	0.03465121755571817	-169.45585879847164	-2133.1159748462783
770500000	0.1534656830323102	-115.48394521261288	-0.2739246835249206	-0.18993179230217677	0.02067903079380711	0.6902565898511506	-170.83250915119135	-2124.9961315721134
780000000	0.25125845720959045	-113.99242222744411	0.4806685509298576	0.16615320525014615	-0.44376732056439605	-0.6606696213780056	-172.24540484709917	-2089.817917028743
789500000	0.34927593425357595	-112.56166428337062	-0.038163906928513305	0.060126375111028516	0.2503042240141347	-0.4398583524229677	-168.51763296638632	-2090.4854737501914
799000000	0.5017998372753559	-111.0047198825393	0.1180518140427573	0.26599951252774173	0.12700228039524922	0.1791499219126789	-179.18457226025922	-2106.6040397615043
808500000	0.4657626537397159	-109.53842159021643	-0.07895359093433219	0.021673642952883425	-0.05856212705464525	-0.621010607282498	-178.11587928319125	-2041.4115112443549
818000000	0.43677629913668486	-108.09395498678597	0.12255869958314446	-0.14291601806619322	0.01344451829613407	-0.5478783775919069	-156.71673798714426	-2026.900523164474
827500000	0.47289764159157915	-106.64612691386884	0.4068618427386185	-0.20933480227063828	-0.17863193171298947	0.07598655461318035	-181.35409309857744	-2029.2627380170518
837000000	0.3969282149364331	-105.33002673599165	0.2204481497001142	0.16005987786695777	0.01383034281438677	-0.27777393386436716	-154.37294372101746	-2006.9533411201458
846500000	0.40373490970633674	-104.10739751784905	0.08249211276748719	-0.11007494331793734	-0.15676749073516183	0.23814284369900426	-145.6388906208439	-1950.8246518259348
856000000	0.3661681179301821	-102.65678086499517	-0.0595097477113308	-0.057751720501705614	-0.11360973948631682	0.4651121159589684	-148.4682125403072	-1979.5241685839583
865500000	0.3983858394235937	-101.45551781456327	0.019342060919156908	-0.2204755170092542	-0.20823724437259472	0.08451540040186155	-143.25126690443142	-1920.8547326130729
875000000	0.36825343438962316	-100.19944036817392	0.20672563995084725	0.2636079342929671	0.1964541574952223	0.019415001842410833	-144.8793170388501	-1937.4716802257813
884500000	0.38208221970664286	-98.9836420509726	-0.24494730256817482	0.1588852054979612	0.3064612587381395	-0.05679982775034715	-147.5650971684817	-1913.14072889842
894000000	0.411365912277718	-97.69188885472691	-0.2349105149205776	-0.057254847528101505	-0.2803179360596105	-0.3592386276851737	-137.64122843623738	-1904.243082536191
903500000	0.37396838162859414	-96.47994158147411	0.055348232594625096	-0.11258723804890595	-0.30538246723756407	-0.010849367106161259	-142.5964605821085	-1874.1196405179837
913000000	0.32369989887750356	-95.35153305953077	-0.009542229038970368	0.03151095846244951	-0.22720676631144862	-0.16239542125376707	-146.5272338273544	-1864.3498273169894
922500000	0.31023269037030965	-94.16791731939276	0.1986289551210961	0.28697860997429087	-0.20423296329304902	0.42202328654185145	-165.996921748789	-1840.8667237667332
932000000	0.40599218491581107	-93.09424064401345	0.25375804880180136	0.2642089868918923	0.27252649660361056	0.15183025596992955	-186.1680074068826	-1834.6907132178392
941500000	0.36496386011117204	-91.9160151433808	-0.05356228595163663	-0.07761499835390134	-0.20444787091682715	-0.049152918875011505	-164.06698568774607	-1795.12358662761
951000000	0.3372407689233863	-90.94351766572551	0.2159506306896927	-0.20766407497164074	-0.09941995249232993	0.1606549035332334	-156.9262406607275	-1757.4367361572624
960500000	0.29594782685936705	-89.72975382768698	-0.02038398299651593	-0.10009054264373579	-0.1604644528035596	-0.24279764654255903	-167.90912534862696	-1744.3367784386692
970000000	0.40544383394910555	-88.83914103929274	-0.10975916745184491	0.09099839024054251	-0.09185834587184474	-0.027823028017897964	-160.5679013002805	-1736.3405816605195
979500000	0.39092057939876557	-87.78107354162282	-0.13863002445603992	0.2830868238790891	0.33859652979701443	-0.32489398336347197	-165.5400373339953	-1741.2284308296735
989000000	0.37463751156766206	-86.84445615855684	-0.16820859085667025	0.13235606125441657	-0.35882195570598613	-0.08798982297843783	-153.1322621224851	-1714.4150981977937
998500000	0.30118271292500987	-85.81160125149091	-0.056563359609479245	0.23335868824599942	-0.15885562362920547	-0.10118716945049629	-156.27674375466708	-1698.045242522757
1008000000	0.24740035350937933	-84.80357130039415	0.00919516537592746	0.12776817543279442	-0.023936122429675775	0.0012440267265202416	-154.06453649792206	-1680.620565858698
1017500000	0.4411086015432761	-83.9086640303325	-0.07352332960036681	0.009995718345925535	-0.10746553862027446	-0.004727173163263668	-164.90713472072832	-1666.8473763495583
1027000000	0.3669134588795016	-82.87650905033168	-0.05438445310776095	0.253726348619623	-0.15821213334719894	-0.2769387934199478	-155.0837809105721	-1666.6571770379169
1036500000	0.37171057385280004	-81.94409000644411	-0.12174049730517755	0.12882179652905995	0.10097047337859755	-0.019327989388454068	-156.83578429886396	-1664.1258427092428
1046000000	0.3953238021394507	-81.14428509904708	-0.023918484017197286	0.09020319649028744	0.12492326451005226	0.17918179656203392	-146.43045531414006	-1647.4075917031364
1055500000	0.4014809918417302	-80.24526824594722	-0.10579348489626958	-0.16371745125123804	-0.05634161507121023	-0.006492311658455904	-128.84637322263748	-1646.5485294899365
1065000000	0.3545473192778962	-79.28285418894657	0.07173098195441481	0.09635994785323444	0.02260189361940286	-0.1206032306505115	-155.0564009294462	-1620.8584940570363
1074500000	0.35470695325183427	-78.41265718235667	-0.11243939783842821	0.0900421012558347	-0.07453305167293951	-0.027869904653161796	-145.44317053257575	-1601.4353119434284
1084000000	0.36822278925596624	-77.62985626985936	0.05391189787003338	-0.0977100945877458	-0.1062083578955629	0.027724376412673668	-138.4774093641505	-1591.9120724452619
1093500000	0.3514864056210173	-76.80602009729209	0.11351415349873624	0.015216606978163995	0.04624987358991007	0.15059034556225445	-148.07197963302843	-1584.549036479799
1103000000	0.39356083014920795	-75.95785548259313	-0.0497992764247797	0.15399808233174717	-0.11329747705784689	-0.2842051374244098	-150.87600744769713	-1579.5597211744896
1112500000	0.30856702124811913	-75.15844563418906	0.02903913994703797	0.0012544808148723388	-0.2668619097087032	0.11354979086057462	-128.94098763520003	-1577.4242909872562
1122000000	0.3705628815983082	-74.28395819907338	-0.04839155513815589	-0.1312152750001238	0.15578581044650255	0.03151686625033657	-133.49504267881028	-1534.2485888944575
1131500000	0.3915106139470278	-73.53465215461279	-0.05602165140758935	0.15683309968435089	-0.003928720322165221	-0.06280036981960577	-136.99245820526914	-1529.2180638896768
1141000000	0.34642463512662836	-72.76827743922911	0.06429399473487317	-0.023734025198222528	-0.3404617034134725	0.2465825266569818	-119.10486899513172	-1522.7762125012853
1150500000	0.41180195722576685	-72.02953485967794	-0.0928685422229659	0.008675409653442556	0.11174593267694391	0.024985753574301134	-137.66440379416292	-1502.7463231765432
1160000000	0.4382314585687383	-71.2790710723734	0.0151778680249756	0.07507291704366378	0.05724847445558594	-0.06170257832390853	-126.80531400182818	-1507.7102853386436
1169500000	0.38044218231994015	-70.48223047398294	0.03669916996546372	-0.031565833741019754	0.07272909498125216	0.14539508589346445	-128.9192428223948	-1489.0980683409482
1179000000	0.35111828526664135	-69.76419792962692	0.05857544047532276	0.0487335760811774	0.021890258028208903	-0.01057124942358154	-128.45914144733234	-1503.245447643836
1188500000	0.34472036713693877	-69.00210946635576	-0.02505043106053717	-0.023728802983660535	0.13091771511939562	0.047887719713290804	-122.66651229379791	-1476.1648658798256
1198000000	0.33672596569148977	-68.36851342624134	-0.06352455150146818	0.08708578104705111	0.37676856614443527	0.14944998625503228	-126.34874210411846	-1470.3065896045339
1207500000	0.34413755891733305	-67.64158676464949	-0.012897675127646632	-0.0035185501662234916	-0.03056767795416824	-0.013505451184838268	-131.81966520974078	-1456.9091495876205
1217000000	0.35383917205279575	-66.98241255129989	0.006925887821759299	-0.03801643466522395	-0.016525636867498122	-0.06998386191758711	-137.69853864091678	-1432.0328516368402
1226500000	0.2861097937459956	-66.23861302227157	-0.10495502943652228	-0.06921547638436855	0.014302497620893941	0.011902296905347203	-113.39860283741532	-1433.3798957189924
1236000000	0.2995396828474836	-65.56956783151116	-0.15634767654507314	-0.06847743459408917	-0.20661588276613682	0.1646043198069886	-116.69176619702928	-1418.301267016651
1245500000	0.3138809178858916	-64.90398560637185	-0.012889755360300077	0.029255080981692348	0.1842658417472897	-0.055527030638851	-131.1805779438688	-1417.2912739153007
1255000000	0.3154399334731586	-64.29257760696804	-0.0032575590730799437	0.12430245708473858	-0.08014152692406283	0.01756647584664978	-121.66624416216838	-1394.4119861676834
1264500000	0.35798514808482834	-63.59265191490693	0.03255090112875261	-0.07109597348296308	0.02085860220687371	-0.047473042962077806	-118.44550925193766	-1386.4604196464002
1274000000	0.30930075614094504	-62.937818813169294	0.0011929906282030186	-0.1018922548714893	-0.059017596472986295	-0.07606062726122632	-119.20711535252832	-1382.956027882052
1283500000	0.2860447511671752	-62.34330726004966	0.06364737003577489	-0.07583725661383366	-0.006249553031579842	-0.09152295198897653	-119.49769075157784	-1374.2007063095311
1293000000	0.3436321323550795	-61.70358764343475	-0.08301749929515197	-0.22262372433888034	0.047689169037843135	-0.12670751666316876	-110.53614255922145	-1375.0874021705695
1302500000	0.2896041020398574	-61.10192655791804	0.024999031194587178	-0.06946889701248539	0.07720715480071418	-0.01009275051471589	-114.9096771310593	-1352.8387273894116
1312000000	0.3161143168044844	-60.45253216109458	0.05147372047099484	0.006696404147366354	0.027645993786875322	-0.03631599306770146	-108.45708184524219	-1345.3809332762125
1321500000	0.33325143641204596	-59.83468202382879	-0.04852780535550899	0.001955756895704504	-0.10391090366021923	0.08234575962736924	-112.57559691522233	-1342.4128458863888
1331000000	0.33692926201198786	-59.279034891540135	-0.06259425322843692	-0.03843483510660276	-0.17710525630794088	-0.14383912484058953	-116.03706265328042	-1331.2798786692742
1340500000	0.3421302320523578	-58.6952804166124	0.09919263340102562	0.009893276085827166	0.02328232565773535	0.01884389415255199	-103.01834263089927	-1329.5091825575191
1350000000	0.33323970868892255	-58.12602051517004	0.040116250929957825	-0.04728659610212635	-0.0012640357822461066	0.16691384592043546	-112.17661561514977	-1314.3233773308966
1359500000	0.29683706765056717	-57.607213471201135	0.000702052140769743	0.07973142763584551	0.15303380058103785	0.04061974478585262	-113.16572312239462	-1299.1977402829505
1369000000	0.337436614203824	-56.96575497621893	-0.0714564638861658	-0.03154537247069993	-0.005235142099457789	-0.0009347325943291579	-102.69583068720895	-1303.7560363421392
1378500000	0.3042142534070457	-56.4422164124206	-0.009756387093733426	0.028185484920496724	-0.047339277093788636	-0.047028550549015606	-103.51693931277333	-1293.768747526948
1388000000	0.2584311696041929	-55.86338871512286	0.050961716258355834	0.04541795173130899	0.14558056547041281	0.03741938296496527	-109.21665351513225	-1286.6445718297107
1397500000	0.25377088972530365	-55.341649116710215	-0.038902366139886846	0.04717169648006865	-0.01735691922165919	-0.03721651068818166	-101.92857520468009	-1274.5770783120925
1407000000	0.30600520530938796	-54.815459078391065	-0.03405760628635913	0.026715421025231452	0.007227384621250277	0.0425587521589346	-110.75034838960902	-1269.7681134576949
1416500000	0.323658285557055	-54.218322841301536	-0.07431716001783362	0.008208381024730952	0.11618363461445029	0.10251102134160087	-103.2567793526548	-1266.3164872735642
1426000000	0.32088413100303326	-53.7053075511984	-0.11812669232247508	0.011552789461395836	0.09150769787501382	-0.028647847063048786	-99.72483447115053	-1266.9980723551726
1435500000	0.3121882900996079	-53.18547442349255	0.05155361579308212	0.0031654314060663093	-0.007759222611508795	-0.06301827545234905	-93.29228104581998	-1251.8783999302018
1445000000	0.32612448246526143	-52.701055276127796	0.01489422109277228	-0.08662503595078154	0.0959591505922919	0.01578272317403633	-103.35738672722617	-1243.3068765270807
1454500000	0.29026859768130725	-52.162752388104145	0.12241364828676195	-0.0585128934209347	0.009806419246692467	-0.04693848816450403	-98.99735078671466	-1245.194317213444
1464000000	0.28530235274920024	-51.66134901172969	0.01885947134854718	-0.08037485252626528	0.007671977275235966	0.035379393533017944	-101.97986055218769	-1230.5308165651636
1473500000	0.28329651331125094	-51.15331824020085	-0.053222874673785246	0.08112134818148616	-0.041705065493562135	0.029092090724113603	-101.91392532430055	-1219.9123835695355
1483000000	0.2879755714096915	-50.670421545655145	0.013890928831961658	-0.00190279248370276	-0.09779955864171568	0.01415670709196662	-99.74481504134684	-1216.6477837487253
1492500000	0.28231306126136974	-50.15541645932732	0.09970872183028835	-0.05239649123236985	-0.02066968498666026	-0.07892475551764054	-100.00316458826128	-1213.9765575241445
1502000000	0.24587879120791492	-49.70988842855014	0.010602332959142518	-0.01080240576844598	-0.023478971864671933	0.10769399180455634	-89.61950309228469	-1207.223892541102
